T42F8 13119:217.157   SEGGER J-Link V7.52a Log File
T42F8 13119:217.221   DLL Compiled: Jul 28 2021 11:08:12
T42F8 13119:217.243   Logging started @ 2025-05-07 00:09
T42F8 13119:217.266 - 8946.232ms
T42F8 13119:222.264 JLINK_ExecCommand("Device = AT91SAM3S1B", ...). 
T42F8 13119:222.443   Device "ATSAM3S1B" selected.
T42F8 13119:222.867 - 0.576ms returns 0x00
T42F8 13119:239.545 JLINK_TIF_Select(JLINKARM_TIF_JTAG)
T42F8 13119:243.944 - 4.448ms returns 0x00
T42F8 13119:244.019 JLINK_ConfigJTAG(IRPre = 0, DRPre = 0)
T42F8 13119:244.069 - 0.063ms
T42F8 13119:244.099 JLINK_SetSpeed(4000)
T42F8 13119:244.678 - 0.607ms
T42F8 13119:244.732 JLINK_ResetPullsRESET(OFF)
T42F8 13119:244.811 - 0.098ms
T42F8 13119:244.850 JLINK_Connect()
T42F8 13119:248.036   TotalIRLen = 4, IRPrint = 0x01
T42F8 13119:249.938   JTAG chain detection found 1 devices:
T42F8 13119:249.993    #0 Id: 0x4BA00477, IRLen: 04, CoreSight JTAG-DP
T42F8 13119:262.968   Old FW that does not support reading DPIDR via DAP jobs
T42F8 13119:275.563   DPv0 detected
T42F8 13119:275.602   Scanning AP map to find all available APs
T42F8 13119:284.612   AP[1]: Stopped AP scan as end of AP map has been reached
T42F8 13119:284.644   AP[0]: AHB-AP (IDR: 0x24770011)
T42F8 13119:284.664   Iterating through AP map to find AHB-AP to use
T42F8 13119:299.793   AP[0]: Core found
T42F8 13119:299.990   AP[0]: AHB-AP ROM base: 0xE00FF000
T42F8 13119:308.443   CPUID register: 0x412FC230. Implementer code: 0x41 (ARM)
T42F8 13119:308.482   Found Cortex-M3 r2p0, Little endian.
T42F8 13119:309.832   -- Max. mem block: 0x000023B8
T42F8 13119:310.524   CPU_ReadMem(4 bytes @ 0xE000EDF0)
T42F8 13119:314.122   CPU_WriteMem(4 bytes @ 0xE000EDF0)
T42F8 13119:315.155   CPU_ReadMem(4 bytes @ 0xE0002000)
T42F8 13119:316.096   FPUnit: 6 code (BP) slots and 2 literal slots
T42F8 13119:316.116   CPU_ReadMem(4 bytes @ 0xE000EDFC)
T42F8 13119:317.334   CPU_WriteMem(4 bytes @ 0xE000EDFC)
T42F8 13119:317.982   CPU_ReadMem(4 bytes @ 0xE0001000)
T42F8 13119:318.814   CPU_WriteMem(4 bytes @ 0xE0001000)
T42F8 13119:319.492   CPU_ReadMem(4 bytes @ 0xE000ED88)
T42F8 13119:320.740   CPU_WriteMem(4 bytes @ 0xE000ED88)
T42F8 13119:321.583   CPU_ReadMem(4 bytes @ 0xE000ED88)
T42F8 13119:322.351   CPU_WriteMem(4 bytes @ 0xE000ED88)
T42F8 13119:323.160   CoreSight components:
T42F8 13119:323.189   ROMTbl[0] @ E00FF000
T42F8 13119:323.203   CPU_ReadMem(64 bytes @ 0xE00FF000)
T42F8 13119:324.231   CPU_ReadMem(32 bytes @ 0xE000EFE0)
T42F8 13119:325.447   ROMTbl[0][0]: E000E000, CID: B105E00D, PID: 002BB000 SCS
T42F8 13119:325.484   CPU_ReadMem(32 bytes @ 0xE0001FE0)
T42F8 13119:326.862   ROMTbl[0][1]: E0001000, CID: B105E00D, PID: 002BB002 DWT
T42F8 13119:326.909   CPU_ReadMem(32 bytes @ 0xE0002FE0)
T42F8 13119:328.053   ROMTbl[0][2]: E0002000, CID: B105E00D, PID: 002BB003 FPB
T42F8 13119:328.069   CPU_ReadMem(32 bytes @ 0xE0000FE0)
T42F8 13119:329.359   ROMTbl[0][3]: E0000000, CID: B105E00D, PID: 002BB001 ITM
T42F8 13119:329.374   CPU_ReadMem(32 bytes @ 0xE0040FE0)
T42F8 13119:330.721   ROMTbl[0][4]: E0040000, CID: B105900D, PID: 002BB923 TPIU-Lite
T42F8 13119:330.740 - 85.894ms returns 0x00
T42F8 13119:330.838 JLINK_Halt()
T42F8 13119:335.389 - 4.569ms returns 0x00
T42F8 13119:335.530 JLINK_BeginDownload(Flags = 0x00000000)
T42F8 13119:335.542 - 0.015ms
T42F8 13119:335.565 JLINK_WriteMem(0x400E0A04, 0x4 Bytes, ...)
T42F8 13119:335.574   Data:  0B 01 00 5A
T42F8 13119:336.373   CPU_WriteMem(4 bytes @ 0x400E0A04)
T42F8 13119:337.503 - 1.958ms returns 0x4
T42F8 13119:337.876 JLINK_EndDownload()
T42F8 13119:337.909 - 0.037ms returns 0 (0x0)
T42F8 13119:337.921 JLINK_ReadMemHW(0x400E0A08, 0x0004 Bytes, ...)
T42F8 13119:337.937   CPU_ReadMem(4 bytes @ 0x400E0A08)
T42F8 13119:338.846   Data:  01 00 00 00
T42F8 13119:338.867 - 0.950ms returns 0
T42F8 13119:338.920 JLINK_SetResetType(JLINKARM_CM3_RESET_TYPE_NORMAL)
T42F8 13119:338.929 - 0.013ms returns JLINKARM_CM3_RESET_TYPE_NORMAL
T42F8 13119:338.939 JLINK_Reset()
T42F8 13119:339.482   CPU_ReadMem(16 bytes @ 0x20000000)
T42F8 13119:340.427   CPU_WriteMem(16 bytes @ 0x20000000)
T42F8 13119:341.090   CPU_ReadMem(4 bytes @ 0xE000EDFC)
T42F8 13119:341.887   CPU_WriteMem(4 bytes @ 0xE000EDFC)
T42F8 13119:342.590   CPU_ReadMem(4 bytes @ 0xE0001000)
T42F8 13119:557.576   AT91SAM3 / AT91SAM4 reset: Core did not halt after reset. Halting core...
T42F8 13119:561.909   CPU_WriteMem(4 bytes @ 0xE000ED0C)
T42F8 13119:562.599   CPU_ReadMem(4 bytes @ 0xE000EDF0)
T42F8 13119:563.427   CPU_ReadMem(4 bytes @ 0xE000EDF0)
T42F8 13119:564.205   CPU_WriteMem(4 bytes @ 0xE000EDFC)
T42F8 13119:564.866   CPU_WriteMem(16 bytes @ 0x20000000)
T42F8 13119:569.483   CPU_WriteMem(4 bytes @ 0xE0002000)
T42F8 13119:570.199   CPU_ReadMem(4 bytes @ 0xE000EDFC)
T42F8 13119:571.008   CPU_ReadMem(4 bytes @ 0xE0001000)
T42F8 13119:572.382 - 233.456ms
T42F8 13119:573.463 JLINK_JTAG_GetDeviceID(DeviceIndex = 0)
T42F8 13119:573.479 - 0.020ms returns 1268778103
T42F8 13119:573.491 JLINK_ReadMemU32(0x400E0740, 0x1 Items)
T42F8 13119:573.509   CPU_ReadMem(4 bytes @ 0x400E0740)
T42F8 13119:574.232   Data:  61 05 99 28
T42F8 13119:574.249 - 0.762ms returns 1 (0x1)
T42F8 13119:574.306 JLINK_ReadMemU32(0x400E0744, 0x1 Items)
T42F8 13119:574.321   CPU_ReadMem(4 bytes @ 0x400E0744)
T42F8 13119:575.547   Data:  00 00 00 00
T42F8 13119:575.564 - 1.262ms returns 1 (0x1)
T42F8 13119:575.658 JLINK_BeginDownload(Flags = 0x00000000)
T42F8 13119:575.683 - 0.029ms
T42F8 13119:575.712 JLINK_WriteMem(0x400E0A04, 0x4 Bytes, ...)
T42F8 13119:575.721   Data:  05 00 00 5A
T42F8 13119:575.739   CPU_WriteMem(4 bytes @ 0x400E0A04)
T42F8 13119:576.809 - 1.105ms returns 0x4
T42F8 13119:576.857 JLINK_EndDownload()
T42F8 13119:576.868 - 0.015ms returns 0 (0x0)
T42F8 13119:576.878 JLINK_ReadMemHW(0x400E0A08, 0x0004 Bytes, ...)
T42F8 13119:576.889   CPU_ReadMem(4 bytes @ 0x400E0A08)
T42F8 13119:577.583   Data:  00 00 00 00
T42F8 13119:577.600 - 0.725ms returns 0
T42F8 13119:579.179 JLINK_ReadMemHW(0x400E0A08, 0x0004 Bytes, ...)
T42F8 13119:579.199   CPU_ReadMem(4 bytes @ 0x400E0A08)
T42F8 13119:580.042   Data:  00 00 00 00
T42F8 13119:580.059 - 0.883ms returns 0
T0454 13119:590.110 JLINK_IsHalted()
T0454 13119:590.160 - 0.054ms returns TRUE
T0454 13119:590.187 JLINK_GetMOEs(...)
T0454 13119:590.200   CPU_ReadMem(4 bytes @ 0xE000ED30)
T0454 13119:591.042 - 0.868ms returns 0x01
T0454 13119:591.068 JLINK_ReadReg(R15 (PC))
T0454 13119:591.096 - 0.032ms returns 0x004005B4
T42F8 13119:591.125 JLINK_ReadMemHW(0x400E0A08, 0x0004 Bytes, ...)
T42F8 13119:591.147   CPU_ReadMem(4 bytes @ 0x400E0A08)
T42F8 13119:592.308   Data:  01 00 00 00
T42F8 13119:592.326 - 1.204ms returns 0
T0454 13119:792.567 JLINK_IsHalted()
T0454 13119:792.595 - 0.031ms returns TRUE
T42F8 13119:793.188 JLINK_ResetPullsRESET(ON)
T42F8 13119:793.201 - 0.017ms
T42F8 13119:793.211 JLINK_ResetNoHalt()
T42F8 13119:796.189   TotalIRLen = 4, IRPrint = 0x01
T42F8 13119:797.822   JTAG chain detection found 1 devices:
T42F8 13119:797.848    #0 Id: 0x4BA00477, IRLen: 04, CoreSight JTAG-DP
T42F8 13119:809.876   Old FW that does not support reading DPIDR via DAP jobs
T42F8 13119:821.317   DPv0 detected
T42F8 13119:821.427   AP map detection skipped. Manually configured AP map found.
T42F8 13119:821.454   AP[0]: AHB-AP (IDR: Not set)
T42F8 13119:836.374   AP[0]: Core found
T42F8 13119:836.420   AP[0]: AHB-AP ROM base: 0xE00FF000
T42F8 13119:843.873   CPUID register: 0x412FC230. Implementer code: 0x41 (ARM)
T42F8 13119:843.924   Found Cortex-M3 r2p0, Little endian.
T42F8 13119:844.766   -- Max. mem block: 0x00001F48
T42F8 13119:844.808   CPU_ReadMem(4 bytes @ 0xE000EDF0)
T42F8 13119:845.609   CPU_ReadMem(4 bytes @ 0xE0002000)
T42F8 13119:846.431   FPUnit: 6 code (BP) slots and 2 literal slots
T42F8 13119:846.447   CPU_ReadMem(4 bytes @ 0xE000EDFC)
T42F8 13119:847.659   CPU_ReadMem(4 bytes @ 0xE0001000)
T42F8 13119:848.536   CPU_ReadMem(4 bytes @ 0xE000ED88)
T42F8 13119:849.791   CPU_WriteMem(4 bytes @ 0xE000ED88)
T42F8 13119:850.532   CPU_ReadMem(4 bytes @ 0xE000ED88)
T42F8 13119:851.285   CPU_WriteMem(4 bytes @ 0xE000ED88)
T42F8 13119:851.986   CoreSight components:
T42F8 13119:852.025   ROMTbl[0] @ E00FF000
T42F8 13119:852.038   CPU_ReadMem(64 bytes @ 0xE00FF000)
T42F8 13119:853.631   CPU_ReadMem(32 bytes @ 0xE000EFE0)
T42F8 13119:854.963   ROMTbl[0][0]: E000E000, CID: B105E00D, PID: 002BB000 SCS
T42F8 13119:855.003   CPU_WriteMem(4 bytes @ 0xE0001000)
T42F8 13119:855.911   CPU_ReadMem(32 bytes @ 0xE0001FE0)
T42F8 13119:857.001   ROMTbl[0][1]: E0001000, CID: B105E00D, PID: 002BB002 DWT
T42F8 13119:857.020   CPU_ReadMem(32 bytes @ 0xE0002FE0)
T42F8 13119:858.309   ROMTbl[0][2]: E0002000, CID: B105E00D, PID: 002BB003 FPB
T42F8 13119:858.327   CPU_ReadMem(32 bytes @ 0xE0000FE0)
T42F8 13119:859.678   ROMTbl[0][3]: E0000000, CID: B105E00D, PID: 002BB001 ITM
T42F8 13119:859.696   CPU_ReadMem(32 bytes @ 0xE0040FE0)
T42F8 13119:860.932   ROMTbl[0][4]: E0040000, CID: B105900D, PID: 002BB923 TPIU-Lite
T42F8 13119:860.963   JLINK_Reset()
T42F8 13119:861.634     CPU_ReadMem(16 bytes @ 0x20000000)
T42F8 13119:862.908     CPU_WriteMem(16 bytes @ 0x20000000)
T42F8 13119:864.200     CPU_ReadMem(4 bytes @ 0xE000EDFC)
T42F8 13119:865.535     CPU_WriteMem(4 bytes @ 0xE000EDFC)
T42F8 13119:866.774     CPU_ReadMem(4 bytes @ 0xE0001000)
T42F8 13119:867.627     CPU_WriteMem(4 bytes @ 0xE0001004)
T42F8 13119:886.871     CPU_WriteMem(4 bytes @ 0xE000ED0C)
T42F8 13119:888.235     CPU_ReadMem(4 bytes @ 0xE000EDF0)
T42F8 13119:889.313     CPU_ReadMem(4 bytes @ 0xE000EDF0)
T42F8 13119:890.868     CPU_WriteMem(4 bytes @ 0xE000EDFC)
T42F8 13119:892.068     CPU_WriteMem(16 bytes @ 0x20000000)
T42F8 13119:898.477     CPU_WriteMem(4 bytes @ 0xE0002000)
T42F8 13119:899.715     CPU_ReadMem(4 bytes @ 0xE000EDFC)
T42F8 13119:901.076     CPU_ReadMem(4 bytes @ 0xE0001000)
T42F8 13119:902.386   - 41.452ms
T42F8 13119:902.430   JLINK_Go()
T42F8 13119:902.452     CPU_ReadMem(4 bytes @ 0xE0001000)
T42F8 13119:903.558     CPU_WriteMem(4 bytes @ 0xE0001004)
T42F8 13119:905.563   - 3.158ms
T42F8 13119:905.597 - 112.393ms
T42F8 13119:905.988 JLINK_TIF_Select(JLINKARM_TIF_JTAG)
T42F8 13119:906.013 - 0.032ms returns 0x00
T42F8 13119:906.032 JLINK_ConfigJTAG(IRPre = 0, DRPre = 0)
T42F8 13119:906.045 - 0.019ms
T42F8 13119:906.061 JLINK_SetSpeed(4000)
T42F8 13119:906.516 - 0.492ms
T42F8 13119:906.568 JLINK_ResetPullsRESET(OFF)
T42F8 13119:906.582 - 0.020ms
T42F8 13119:906.598 JLINK_Connect()
T42F8 13119:909.494   TotalIRLen = 4, IRPrint = 0x01
T42F8 13119:911.061   JTAG chain detection found 1 devices:
T42F8 13119:911.107    #0 Id: 0x4BA00477, IRLen: 04, CoreSight JTAG-DP
T42F8 13119:923.056   Old FW that does not support reading DPIDR via DAP jobs
T42F8 13119:934.463   DPv0 detected
T42F8 13119:934.508   AP map detection skipped. Manually configured AP map found.
T42F8 13119:934.529   AP[0]: AHB-AP (IDR: Not set)
T42F8 13119:949.586   AP[0]: Core found
T42F8 13119:949.622   AP[0]: AHB-AP ROM base: 0xE00FF000
T42F8 13119:957.177   CPUID register: 0x412FC230. Implementer code: 0x41 (ARM)
T42F8 13119:957.215   Found Cortex-M3 r2p0, Little endian.
T42F8 13119:957.825   -- Max. mem block: 0x00001F48
T42F8 13119:957.848   CPU_ReadMem(4 bytes @ 0xE000EDF0)
T42F8 13119:958.918   CPU_ReadMem(4 bytes @ 0xE0002000)
T42F8 13119:960.230   FPUnit: 6 code (BP) slots and 2 literal slots
T42F8 13119:960.248   CPU_ReadMem(4 bytes @ 0xE000EDFC)
T42F8 13119:961.567   CPU_ReadMem(4 bytes @ 0xE0001000)
T42F8 13119:962.917   CPU_WriteMem(4 bytes @ 0xE0001000)
T42F8 13119:964.193   CPU_ReadMem(4 bytes @ 0xE000ED88)
T42F8 13119:965.620   CPU_WriteMem(4 bytes @ 0xE000ED88)
T42F8 13119:966.889   CPU_ReadMem(4 bytes @ 0xE000ED88)
T42F8 13119:968.240   CPU_WriteMem(4 bytes @ 0xE000ED88)
T42F8 13119:969.632   CoreSight components:
T42F8 13119:969.659   ROMTbl[0] @ E00FF000
T42F8 13119:969.674   CPU_ReadMem(64 bytes @ 0xE00FF000)
T42F8 13119:971.460   CPU_ReadMem(32 bytes @ 0xE000EFE0)
T42F8 13119:972.871   ROMTbl[0][0]: E000E000, CID: B105E00D, PID: 002BB000 SCS
T42F8 13119:972.899   CPU_ReadMem(32 bytes @ 0xE0001FE0)
T42F8 13119:974.242   ROMTbl[0][1]: E0001000, CID: B105E00D, PID: 002BB002 DWT
T42F8 13119:974.261   CPU_ReadMem(32 bytes @ 0xE0002FE0)
T42F8 13119:975.483   ROMTbl[0][2]: E0002000, CID: B105E00D, PID: 002BB003 FPB
T42F8 13119:975.502   CPU_ReadMem(32 bytes @ 0xE0000FE0)
T42F8 13119:976.831   ROMTbl[0][3]: E0000000, CID: B105E00D, PID: 002BB001 ITM
T42F8 13119:976.848   CPU_ReadMem(32 bytes @ 0xE0040FE0)
T42F8 13119:978.210   ROMTbl[0][4]: E0040000, CID: B105900D, PID: 002BB923 TPIU-Lite
T42F8 13119:978.257 - 71.663ms returns 0x00
T42F8 13119:979.246 JLINK_Halt()
T42F8 13119:982.994 - 3.755ms returns 0x00
T42F8 13119:983.090 JLINK_BeginDownload(Flags = 0x00000000)
T42F8 13119:983.100 - 0.013ms
T42F8 13119:983.122 JLINK_WriteMem(0x400E0A04, 0x4 Bytes, ...)
T42F8 13119:983.130   Data:  0B 01 00 5A
T42F8 13119:984.082   CPU_WriteMem(4 bytes @ 0x400E0A04)
T42F8 13119:985.121 - 2.009ms returns 0x4
T42F8 13119:985.162 JLINK_EndDownload()
T42F8 13119:985.174 - 0.016ms returns 0 (0x0)
T42F8 13119:985.185 JLINK_ReadMemHW(0x400E0A08, 0x0004 Bytes, ...)
T42F8 13119:985.197   CPU_ReadMem(4 bytes @ 0x400E0A08)
T42F8 13119:986.576   Data:  01 00 00 00
T42F8 13119:986.591 - 1.410ms returns 0
T42F8 13119:986.625 JLINK_SetResetType(JLINKARM_CM3_RESET_TYPE_NORMAL)
T42F8 13119:986.634 - 0.013ms returns JLINKARM_CM3_RESET_TYPE_NORMAL
T42F8 13119:986.645 JLINK_Reset()
T42F8 13119:986.658   CPU_ReadMem(16 bytes @ 0x20000000)
T42F8 13119:987.875   CPU_WriteMem(16 bytes @ 0x20000000)
T42F8 13119:989.130   CPU_ReadMem(4 bytes @ 0xE000EDFC)
T42F8 13119:989.928   CPU_WriteMem(4 bytes @ 0xE000EDFC)
T42F8 13119:991.187   CPU_ReadMem(4 bytes @ 0xE0001000)
T42F8 13120:009.259   CPU_WriteMem(4 bytes @ 0xE000ED0C)
T42F8 13120:010.731   CPU_ReadMem(4 bytes @ 0xE000EDF0)
T42F8 13120:012.084   CPU_ReadMem(4 bytes @ 0xE000EDF0)
T42F8 13120:013.383   CPU_WriteMem(4 bytes @ 0xE000EDFC)
T42F8 13120:014.698   CPU_WriteMem(16 bytes @ 0x20000000)
T42F8 13120:020.822   CPU_WriteMem(4 bytes @ 0xE0002000)
T42F8 13120:022.005   CPU_ReadMem(4 bytes @ 0xE000EDFC)
T42F8 13120:023.390   CPU_ReadMem(4 bytes @ 0xE0001000)
T42F8 13120:024.724 - 38.096ms
T42F8 13120:026.799 JLINK_JTAG_GetDeviceID(DeviceIndex = 0)
T42F8 13120:026.830 - 0.040ms returns 1268778103
T42F8 13120:026.853 JLINK_ReadMemU32(0x400E0740, 0x1 Items)
T42F8 13120:026.885   CPU_ReadMem(4 bytes @ 0x400E0740)
T42F8 13120:027.891   Data:  61 05 99 28
T42F8 13120:027.927 - 1.081ms returns 1 (0x1)
T42F8 13120:028.003 JLINK_ReadMemU32(0x400E0744, 0x1 Items)
T42F8 13120:028.034   CPU_ReadMem(4 bytes @ 0x400E0744)
T42F8 13120:029.162   Data:  00 00 00 00
T42F8 13120:029.197 - 1.202ms returns 1 (0x1)
T015C 13120:035.742 JLINK_IsHalted()
T015C 13120:035.783 - 0.500ms returns TRUE
T015C 13120:036.277 JLINK_GetMOEs(...)
T015C 13120:036.310   CPU_ReadMem(4 bytes @ 0xE000ED30)
T015C 13120:037.254 - 0.997ms returns 0x01
T015C 13120:037.298 JLINK_ReadReg(R15 (PC))
T015C 13120:037.325 - 0.035ms returns 0xFFFFFFFE
T42F8 13120:042.888 JLINK_BeginDownload(Flags = 0x00000000)
T42F8 13120:042.913 - 0.029ms
T42F8 13120:042.938 JLINK_WriteMem(0x00400000, 0xACC Bytes, ...)
T42F8 13120:042.948   Data:  E0 25 00 20 B5 05 40 00 B1 05 40 00 B1 05 40 00 ...
T42F8 13120:043.173   completely In flash
T42F8 13120:043.189    -- Read from flash cache (2764 bytes @ 0x00400000)
T42F8 13120:043.201 - 0.266ms returns 0xACC
T42F8 13120:043.334 JLINK_WriteMem(0x00400ACC, 0x51C Bytes, ...)
T42F8 13120:043.346   Data:  4F F4 40 72 1F 4B 1A 60 A3 F5 C0 63 1B 6A 13 F0 ...
T42F8 13120:043.359   completely In flash
T42F8 13120:043.373    -- Read from flash cache (1308 bytes @ 0x00400ACC)
T42F8 13120:043.384 - 0.053ms returns 0x51C
T42F8 13120:045.134 JLINK_EndDownload()
T42F8 13120:045.727   Old firmware which does not support pausing periodic actions during flash download
T42F8 13120:045.750   CPU_ReadMem(4 bytes @ 0xE000ED90)
T42F8 13120:046.692   CPU_ReadMem(4 bytes @ 0xE000ED94)
T42F8 13120:047.427    -- --------------------------------------
T42F8 13120:047.459   Flash bank @ 0x00400000: Default: L2 verify disabled because algorithm performs L1 verify
T42F8 13120:047.507    -- Start of determining dirty areas in flash cache
T42F8 13120:047.545    -- End of determining dirty areas
T42F8 13120:047.557    -- Start of preparing flash programming
T42F8 13120:047.568    -- Calculating RAM usage
T42F8 13120:047.582    -- RAM usage = 2692 Bytes
T42F8 13120:047.593    -- Preserving CPU registers
T42F8 13120:047.618    -- Preparing memory
T42F8 13120:047.629    -- Preparing target
T42F8 13120:051.590    -- Preserving target RAM temporarily used for programming
T42F8 13120:068.095    -- Downloading RAMCode
T42F8 13120:089.997    -- Preparing RAMCode
T42F8 13120:101.554    -- Checking target RAM
T42F8 13120:106.148    -- End of preparing flash programming
T42F8 13120:106.334   Looking for J-Link GUI Server exe at: C:\Program Files (x86)\Atmel\Studio\7.0\atbackend\JLinkGUIServer.exe
T42F8 13120:106.430   Looking for J-Link GUI Server exe at: \JLinkGUIServer.exe
T42F8 13120:408.057   Failed to connect to J-Link GUI Server.
T42F8 13120:416.012    -- CPU speed could not be measured.
T42F8 13120:416.037    -- Start of comparing flash
T42F8 13120:416.049    -- CRC check was estimated as fastest method
T42F8 13120:416.064    -- Comparing range 0x400000 - 0x400FFF (16 Sectors, 4 KiB), using multi-block CRC calculation
T42F8 13120:426.867    -- CRC does not match for sectors 0-15
T42F8 13120:426.895    -- End of comparing flash
T42F8 13120:426.908    -- Start of erasing sectors
T42F8 13120:426.919    -- End of erasing sectors
T42F8 13120:426.930    -- Start of flash programming
T42F8 13120:426.942    -- Programming range 0x00400000 - 0x00400FFF ( 16 Sectors, 4 KB)
T42F8 13120:475.722    -- End of flash programming
T42F8 13120:475.803    -- 0x400000 - 0x400FFF ( 16 Sectors, 4 KoB)
T42F8 13120:475.828    -- Start of restoring
T42F8 13120:475.852    -- Restoring RAMCode
T42F8 13120:494.720    -- Restoring target memory
T42F8 13120:518.010    -- Restore target
T42F8 13120:518.038    -- Restore memory
T42F8 13120:518.049    -- Restoring CPU registers
T42F8 13120:518.072    -- End of restoring
T42F8 13120:518.129    -- Bank 0 @ 0x00400000: 1 range affected (4096 bytes)
T42F8 13120:518.158    -- Total: 0.470s (Prepare: 0.368s, Compare: 0.010s, Erase: 0.000s, Program & Verify: 0.061s, Restore: 0.029s)
T42F8 13120:518.178    -- Program & Verify speed: 65 KiB/s
T42F8 13120:521.157 - 476.038ms returns 4096 (0x1000)
T42F8 13120:521.235 JLINK_SetResetType(JLINKARM_CM3_RESET_TYPE_NORMAL)
T42F8 13120:521.245 - 0.026ms returns JLINKARM_CM3_RESET_TYPE_NORMAL
T42F8 13120:521.268 JLINK_Reset()
T42F8 13120:522.091   CPU_ReadMem(16 bytes @ 0x20000000)
T42F8 13120:523.034   CPU_WriteMem(16 bytes @ 0x20000000)
T42F8 13120:523.659   CPU_ReadMem(4 bytes @ 0xE000EDFC)
T42F8 13120:524.542   CPU_WriteMem(4 bytes @ 0xE000EDFC)
T42F8 13120:525.852   CPU_ReadMem(4 bytes @ 0xE0001000)
T42F8 13120:545.002   CPU_WriteMem(4 bytes @ 0xE000ED0C)
T42F8 13120:546.420   CPU_ReadMem(4 bytes @ 0xE000EDF0)
T42F8 13120:547.758   CPU_ReadMem(4 bytes @ 0xE000EDF0)
T42F8 13120:549.037   CPU_WriteMem(4 bytes @ 0xE000EDFC)
T42F8 13120:550.426   CPU_WriteMem(16 bytes @ 0x20000000)
T42F8 13120:556.705   CPU_WriteMem(4 bytes @ 0xE0002000)
T42F8 13120:557.872   CPU_ReadMem(4 bytes @ 0xE000EDFC)
T42F8 13120:559.252   CPU_ReadMem(4 bytes @ 0xE0001000)
T42F8 13120:560.750 - 39.516ms
T015C 13120:638.398 JLINK_IsHalted()
T015C 13120:638.442 - 0.049ms returns TRUE
T15CC 13120:670.826 JLINK_Halt()
T15CC 13120:670.856 - 0.034ms returns 0x00
T15CC 13120:670.882 JLINK_ReadReg(R15 (PC))
T15CC 13120:670.896 - 0.018ms returns 0x004005B4
T15CC 13120:670.911 JLINK_ReadReg(R13 (SP))
T15CC 13120:670.920 - 0.013ms returns 0x200025E0
T15CC 13120:675.271 JLINK_ReadMemHW(0x004005B4, 0x0004 Bytes, ...)
T15CC 13120:675.296   CPU_ReadMem(4 bytes @ 0x004005B4)
T15CC 13120:676.737   Data:  08 B5 1C 4B
T15CC 13120:676.765 - 1.498ms returns 0
T15CC 13120:677.113 JLINK_ReadReg(R0)
T15CC 13120:677.142 - 0.045ms returns 0x400E1400
T15CC 13120:677.163 JLINK_ReadReg(R1)
T15CC 13120:677.176 - 0.017ms returns 0x00000000
T15CC 13120:677.216 JLINK_ReadReg(R2)
T15CC 13120:677.232 - 0.020ms returns 0xA5000004
T15CC 13120:677.245 JLINK_ReadReg(R3)
T15CC 13120:677.253 - 0.012ms returns 0x200005B0
T15CC 13120:677.264 JLINK_ReadReg(R4)
T15CC 13120:677.273 - 0.012ms returns 0x00000000
T15CC 13120:677.284 JLINK_ReadReg(R5)
T15CC 13120:677.292 - 0.012ms returns 0x400E1000
T15CC 13120:677.303 JLINK_ReadReg(R6)
T15CC 13120:677.312 - 0.014ms returns 0x20000598
T15CC 13120:677.325 JLINK_ReadReg(R7)
T15CC 13120:677.333 - 0.011ms returns 0x0000000C
T15CC 13120:677.359 JLINK_ReadReg(R8)
T15CC 13120:677.368 - 0.012ms returns 0x08CDA4D0
T15CC 13120:677.379 JLINK_ReadReg(R9)
T15CC 13120:677.388 - 0.013ms returns 0x400E1000
T15CC 13120:677.400 JLINK_ReadReg(R10)
T15CC 13120:677.408 - 0.012ms returns 0x29AAA10A
T15CC 13120:677.420 JLINK_ReadReg(R11)
T15CC 13120:677.429 - 0.013ms returns 0x00658518
T15CC 13120:677.441 JLINK_ReadReg(R12)
T15CC 13120:677.450 - 0.013ms returns 0x00000001
T15CC 13120:677.461 JLINK_ReadReg(R13 (SP))
T15CC 13120:677.472 - 0.014ms returns 0x200025E0
T15CC 13120:677.486 JLINK_ReadReg(R14)
T15CC 13120:677.495 - 0.012ms returns 0xFFFFFFFF
T15CC 13120:677.506 JLINK_ReadReg(R15 (PC))
T15CC 13120:677.514 - 0.012ms returns 0x004005B4
T15CC 13120:677.534 JLINK_ReadReg(XPSR)
T15CC 13120:677.542 - 0.011ms returns 0x01000000
T15CC 13120:677.553 JLINK_ReadReg(MSP)
T15CC 13120:677.561 - 0.011ms returns 0x200025E0
T15CC 13120:677.572 JLINK_ReadReg(PSP)
T15CC 13120:677.580 - 0.011ms returns 0xC8420018
T15CC 13120:677.591 JLINK_ReadReg(PRIMASK)
T15CC 13120:677.599 - 0.011ms returns 0x00000000
T15CC 13120:677.610 JLINK_ReadReg(BASEPRI)
T15CC 13120:677.618 - 0.011ms returns 0x00000000
T15CC 13120:677.633 JLINK_ReadReg(FAULTMASK)
T15CC 13120:677.642 - 0.012ms returns 0x00000000
T15CC 13120:677.653 JLINK_ReadReg(CONTROL)
T15CC 13120:677.661 - 0.013ms returns 0x00000000
T15CC 13120:677.977 JLINK_ReadMemHW(0x004005B4, 0x0002 Bytes, ...)
T15CC 13120:677.999   CPU_ReadMem(2 bytes @ 0x004005B4)
T15CC 13120:679.269   Data:  08 B5
T15CC 13120:679.298 - 1.325ms returns 0
T15CC 13120:716.829 JLINK_ReadReg(R0)
T15CC 13120:716.853 - 0.027ms returns 0x400E1400
T15CC 13120:716.867 JLINK_ReadReg(R1)
T15CC 13120:716.876 - 0.013ms returns 0x00000000
T15CC 13120:716.887 JLINK_ReadReg(R2)
T15CC 13120:716.896 - 0.012ms returns 0xA5000004
T15CC 13120:716.907 JLINK_ReadReg(R3)
T15CC 13120:716.915 - 0.011ms returns 0x200005B0
T15CC 13120:716.926 JLINK_ReadReg(R4)
T15CC 13120:716.935 - 0.012ms returns 0x00000000
T15CC 13120:716.946 JLINK_ReadReg(R5)
T15CC 13120:716.954 - 0.011ms returns 0x400E1000
T15CC 13120:716.965 JLINK_ReadReg(R6)
T15CC 13120:716.973 - 0.011ms returns 0x20000598
T15CC 13120:716.984 JLINK_ReadReg(R7)
T15CC 13120:716.992 - 0.011ms returns 0x0000000C
T15CC 13120:717.003 JLINK_ReadReg(R8)
T15CC 13120:717.011 - 0.011ms returns 0x08CDA4D0
T15CC 13120:717.022 JLINK_ReadReg(R9)
T15CC 13120:717.030 - 0.011ms returns 0x400E1000
T15CC 13120:717.041 JLINK_ReadReg(R10)
T15CC 13120:717.049 - 0.011ms returns 0x29AAA10A
T15CC 13120:717.060 JLINK_ReadReg(R11)
T15CC 13120:717.068 - 0.011ms returns 0x00658518
T15CC 13120:717.079 JLINK_ReadReg(R12)
T15CC 13120:717.087 - 0.011ms returns 0x00000001
T15CC 13120:717.098 JLINK_ReadReg(R13 (SP))
T15CC 13120:717.106 - 0.012ms returns 0x200025E0
T15CC 13120:717.117 JLINK_ReadReg(R14)
T15CC 13120:717.125 - 0.011ms returns 0xFFFFFFFF
T15CC 13120:717.136 JLINK_ReadReg(R15 (PC))
T15CC 13120:717.144 - 0.012ms returns 0x004005B4
T15CC 13120:717.164 JLINK_ReadReg(XPSR)
T15CC 13120:717.172 - 0.012ms returns 0x01000000
T15CC 13120:717.183 JLINK_ReadReg(MSP)
T15CC 13120:717.191 - 0.011ms returns 0x200025E0
T15CC 13120:717.202 JLINK_ReadReg(PSP)
T15CC 13120:717.210 - 0.011ms returns 0xC8420018
T15CC 13120:717.221 JLINK_ReadReg(PRIMASK)
T15CC 13120:717.230 - 0.011ms returns 0x00000000
T15CC 13120:717.241 JLINK_ReadReg(BASEPRI)
T15CC 13120:717.249 - 0.011ms returns 0x00000000
T15CC 13120:717.264 JLINK_ReadReg(FAULTMASK)
T15CC 13120:717.275 - 0.014ms returns 0x00000000
T15CC 13120:717.286 JLINK_ReadReg(CONTROL)
T15CC 13120:717.294 - 0.012ms returns 0x00000000
T15CC 13120:734.679 JLINK_ReadMemHW(0x004005B4, 0x0004 Bytes, ...)
T15CC 13120:734.714   CPU_ReadMem(4 bytes @ 0x004005B4)
T15CC 13120:736.014   Data:  08 B5 1C 4B
T15CC 13120:736.042 - 1.366ms returns 0
T015C 13120:841.445 JLINK_IsHalted()
T015C 13120:841.471 - 0.030ms returns TRUE
T015C 13121:044.075 JLINK_IsHalted()
T015C 13121:044.124 - 0.058ms returns TRUE
T42F8 13121:045.317 JLINK_ResetPullsRESET(ON)
T42F8 13121:045.341 - 0.032ms
T42F8 13121:045.363 JLINK_ResetNoHalt()
T42F8 13121:048.515   TotalIRLen = 4, IRPrint = 0x01
T42F8 13121:050.355   JTAG chain detection found 1 devices:
